
T0290 000:531 SEGGER J-Link V4.98e Log File (0000ms, 0270ms total)
T0290 000:531 DLL Compiled: May  5 2015 11:00:52 (0000ms, 0270ms total)
T0290 000:531 Logging started @ 2016-05-13 19:50 (0000ms, 0270ms total)
T0290 000:531 JLINK_SetWarnOutHandler(...) (0000ms, 0270ms total)
T0290 000:531 JLINK_OpenEx(...)
Firmware: J-Link ARM V8 compiled Nov 28 2014 13:44:46
Hardware: V8.00
S/N: 17935099
Feature(s): RDI,FlashDL,FlashBP,JFlash  returns O.K. (0268ms, 0538ms total)
T0290 000:799 JLINK_SetErrorOutHandler(...) (0000ms, 0538ms total)
T0290 000:799 JLINK_ExecCommand("ProjectFile = "C:\workplace\ChildBath_STM32\Project\RVMDK£¨uv5£©\JLinkSettings.ini"", ...)  returns 0x00 (0001ms, 0539ms total)
T0290 000:840 JLINK_ExecCommand("Device = STM32F103VE", ...)Device "STM32F103VE" selected.  returns 0x00 (0029ms, 0568ms total)
T0290 000:869 JLINK_ExecCommand("DisableConnectionTimeout", ...)  returns 0x01 (0000ms, 0568ms total)
T0290 000:869 JLINK_GetHardwareVersion()  returns 0x13880 (0000ms, 0568ms total)
T0290 000:869 JLINK_GetDLLVersion()  returns 49805 (0000ms, 0568ms total)
T0290 000:869 JLINK_GetFirmwareString(...) (0000ms, 0568ms total)
T0290 000:950 JLINK_GetDLLVersion()  returns 49805 (0000ms, 0568ms total)
T0290 000:950 JLINK_GetCompileDateTime() (0000ms, 0568ms total)
T0290 000:972 JLINK_GetFirmwareString(...) (0000ms, 0568ms total)
T0290 000:977 JLINK_GetHardwareVersion()  returns 0x13880 (0000ms, 0568ms total)
T0290 000:984 JLINK_TIF_Select(JLINKARM_TIF_JTAG)  returns 0x00 (0001ms, 0569ms total)
T0290 000:985 JLINK_SetSpeed(5000) (0000ms, 0569ms total)
T0290 000:985 JLINK_GetIdData(...) >0x2F8 JTAG>TotalIRLen = 9, IRPrint = 0x0011 >0x30 JTAG> >0x210 JTAG> >0x40 JTAG> >0x40 JTAG> >0x40 JTAG> >0x30 JTAG> >0x40 JTAG> >0x40 JTAG> >0x40 JTAG> >0x40 JTAG> >0x40 JTAG> >0x40 JTAG> >0x40 JTAG> >0x40 JTAG> >0x2F8 JTAG>TotalIRLen = 9, IRPrint = 0x0011 >0x30 JTAG> >0x210 JTAG> >0x70 JTAG> >0x40 JTAG> >0x40 JTAG> >0x40 JTAG> >0x50 JTAG> >0x80 JTAG> >0x40 JTAG> >0x30 JTAG> >0x40 JTAG> >0x40 JTAG> >0x30 JTAG> >0x40 JTAG> >0x50 JTAG>
Found Cortex-M3 r1p1, Little endian. -- CPU_WriteMem(4 bytes @ 0xE0002000) -- CPU_ReadMem(4 bytes @ 0xE000EDF0) -- CPU_ReadMem(4 bytes @ 0xE0002000)FPUnit: 6 code (BP) slots and 2 literal slots -- CPU_ReadMem(4 bytes @ 0xE000EDFC) -- CPU_ReadMem(4 bytes @ 0xE0001000) -- CPU_WriteMem(4 bytes @ 0xE0001000) -- CPU_ReadMem(4 bytes @ 0xE000ED88) -- CPU_WriteMem(4 bytes @ 0xE000ED88) -- CPU_ReadMem(4 bytes @ 0xE000ED88) -- CPU_WriteMem(4 bytes @ 0xE000ED88)CoreSight components:ROMTbl 0 @ E00FF000
 -- CPU_ReadMem(16 bytes @ 0xE00FF000) -- CPU_ReadMem(16 bytes @ 0xE000EFF0) -- CPU_ReadMem(16 bytes @ 0xE000EFE0)ROMTbl 0 [0]: FFF0F000, CID: B105E00D, PID: 001BB000 SCS -- CPU_ReadMem(16 bytes @ 0xE0001FF0) -- CPU_ReadMem(16 bytes @ 0xE0001FE0)ROMTbl 0 [1]: FFF02000, CID: B105E00D, PID: 001BB002 DWT -- CPU_ReadMem(16 bytes @ 0xE0002FF0) -- CPU_ReadMem(16 bytes @ 0xE0002FE0)ROMTbl 0 [2]: FFF03000, CID: B105E00D, PID: 000BB003 FPB -- CPU_ReadMem(16 bytes @ 0xE0000FF0)
 -- CPU_ReadMem(16 bytes @ 0xE0000FE0)ROMTbl 0 [3]: FFF01000, CID: B105E00D, PID: 001BB001 ITM -- CPU_ReadMem(16 bytes @ 0xE00FF010) -- CPU_ReadMem(16 bytes @ 0xE0040FF0) -- CPU_ReadMem(16 bytes @ 0xE0040FE0)ROMTbl 0 [4]: FFF41000, CID: B105900D, PID: 001BB923 TPIU-Lite -- CPU_ReadMem(16 bytes @ 0xE0041FF0) -- CPU_ReadMem(16 bytes @ 0xE0041FE0)ROMTbl 0 [5]: FFF42000, CID: B105900D, PID: 101BB924 ETM-M3 ScanLen=9 NumDevices=2 aId[0]=0x3BA00477 aIrRead[0]=0 aScanLen[0]=0 aScanRead[0]=0
 (0073ms, 0642ms total)
T0290 001:058 JLINK_JTAG_GetDeviceID(DeviceIndex = 0)  returns 0x3BA00477 (0000ms, 0642ms total)
T0290 001:058 JLINK_JTAG_GetDeviceInfo(DeviceIndex = 0)  returns 0x00 (0000ms, 0642ms total)
T0290 001:058 JLINK_JTAG_GetDeviceID(DeviceIndex = 1)  returns 0x6414041 (0000ms, 0642ms total)
T0290 001:058 JLINK_JTAG_GetDeviceInfo(DeviceIndex = 1)  returns 0x00 (0000ms, 0642ms total)
T0290 001:058 JLINK_GetDLLVersion()  returns 49805 (0000ms, 0642ms total)
T0290 001:058 JLINK_CORE_GetFound()  returns 0x30000FF (0000ms, 0642ms total)
T0290 001:058 JLINK_GetDebugInfo(0x100) -- Value=0xE00FF003  returns 0x00 (0000ms, 0642ms total)
T0290 001:061 JLINK_ReadMem (0xE00FF000, 0x0020 Bytes, ...) -- CPU is running -- CPU_ReadMem(32 bytes @ 0xE00FF000) - Data: 03 F0 F0 FF 03 20 F0 FF 03 30 F0 FF 03 10 F0 FF ...  returns 0x00 (0000ms, 0642ms total)
T0290 001:062 JLINK_ReadMem (0xE000EFF0, 0x0010 Bytes, ...) -- CPU is running -- CPU_ReadMem(16 bytes @ 0xE000EFF0) - Data: 0D 00 00 00 E0 00 00 00 05 00 00 00 B1 00 00 00  returns 0x00 (0000ms, 0642ms total)
T0290 001:062 JLINK_ReadMem (0xE000EFD0, 0x0020 Bytes, ...) -- CPU is running -- CPU_ReadMem(32 bytes @ 0xE000EFD0) - Data: 04 00 00 00 00 00 00 00 00 00 00 00 00 00 00 00 ...  returns 0x00 (0001ms, 0643ms total)
T0290 001:063 JLINK_ReadMem (0xE0001FF0, 0x0010 Bytes, ...) -- CPU is running -- CPU_ReadMem(16 bytes @ 0xE0001FF0) - Data: 0D 00 00 00 E0 00 00 00 05 00 00 00 B1 00 00 00  returns 0x00 (0001ms, 0644ms total)
T0290 001:064 JLINK_ReadMem (0xE0001FD0, 0x0020 Bytes, ...) -- CPU is running -- CPU_ReadMem(32 bytes @ 0xE0001FD0) - Data: 04 00 00 00 00 00 00 00 00 00 00 00 00 00 00 00 ...  returns 0x00 (0001ms, 0645ms total)
T0290 001:065 JLINK_ReadMem (0xE0002FF0, 0x0010 Bytes, ...) -- CPU is running -- CPU_ReadMem(16 bytes @ 0xE0002FF0) - Data: 0D 00 00 00 E0 00 00 00 05 00 00 00 B1 00 00 00  returns 0x00 (0001ms, 0646ms total)
T0290 001:066 JLINK_ReadMem (0xE0002FD0, 0x0020 Bytes, ...) -- CPU is running -- CPU_ReadMem(32 bytes @ 0xE0002FD0) - Data: 04 00 00 00 00 00 00 00 00 00 00 00 00 00 00 00 ...  returns 0x00 (0001ms, 0647ms total)
T0290 001:067 JLINK_ReadMem (0xE0000FF0, 0x0010 Bytes, ...) -- CPU is running -- CPU_ReadMem(16 bytes @ 0xE0000FF0) - Data: 0D 00 00 00 E0 00 00 00 05 00 00 00 B1 00 00 00  returns 0x00 (0001ms, 0648ms total)
T0290 001:068 JLINK_ReadMem (0xE0000FD0, 0x0020 Bytes, ...) -- CPU is running -- CPU_ReadMem(32 bytes @ 0xE0000FD0) - Data: 04 00 00 00 00 00 00 00 00 00 00 00 00 00 00 00 ...  returns 0x00 (0001ms, 0649ms total)
T0290 001:069 JLINK_ReadMem (0xE0040FF0, 0x0010 Bytes, ...) -- CPU is running -- CPU_ReadMem(16 bytes @ 0xE0040FF0) - Data: 0D 00 00 00 90 00 00 00 05 00 00 00 B1 00 00 00  returns 0x00 (0001ms, 0650ms total)
T0290 001:070 JLINK_ReadMem (0xE0040FD0, 0x0020 Bytes, ...) -- CPU is running -- CPU_ReadMem(32 bytes @ 0xE0040FD0) - Data: 04 00 00 00 00 00 00 00 00 00 00 00 00 00 00 00 ...  returns 0x00 (0001ms, 0651ms total)
T0290 001:071 JLINK_ReadMem (0xE0041FF0, 0x0010 Bytes, ...) -- CPU is running -- CPU_ReadMem(16 bytes @ 0xE0041FF0) - Data: 0D 00 00 00 90 00 00 00 05 00 00 00 B1 00 00 00  returns 0x00 (0000ms, 0651ms total)
T0290 001:071 JLINK_ReadMem (0xE0041FD0, 0x0020 Bytes, ...) -- CPU is running -- CPU_ReadMem(32 bytes @ 0xE0041FD0) - Data: 04 00 00 00 00 00 00 00 00 00 00 00 00 00 00 00 ...  returns 0x00 (0001ms, 0652ms total)
T0290 001:072 JLINK_ReadMemU32(0xE000ED00, 0x0001 Items, ...) -- CPU is running -- CPU_ReadMem(4 bytes @ 0xE000ED00) - Data: 31 C2 1F 41  returns 0x01 (0000ms, 0652ms total)
T0290 001:072 JLINK_SetResetType(JLINKARM_RESET_TYPE_NORMAL)  returns JLINKARM_RESET_TYPE_NORMAL (0000ms, 0652ms total)
T0290 001:072 JLINK_Reset() -- CPU is running -- CPU_WriteMem(4 bytes @ 0xE000EDF0) -- CPU is running -- CPU_WriteMem(4 bytes @ 0xE000EDFC) -- CPU is running -- CPU_WriteMem(4 bytes @ 0xE000ED0C) -- CPU is running -- CPU_ReadMem(4 bytes @ 0xE000EDF0) -- CPU is running -- CPU_ReadMem(4 bytes @ 0xE000EDF0) -- CPU is running -- CPU_WriteMem(4 bytes @ 0xE000EDF0) -- CPU is running -- CPU_WriteMem(4 bytes @ 0xE000EDFC) -- CPU is running -- CPU_ReadMem(4 bytes @ 0xE000EDF0) >0x80 JTAG> >0x40 JTAG> >0x30 JTAG>
 >0x40 JTAG> >0x50 JTAG> >0x40 JTAG> -- CPU_WriteMem(4 bytes @ 0xE000EDFC) -- CPU_WriteMem(4 bytes @ 0xE0001028) -- CPU_WriteMem(4 bytes @ 0xE0001038) -- CPU_WriteMem(4 bytes @ 0xE0001048) -- CPU_WriteMem(4 bytes @ 0xE0001058) -- CPU_WriteMem(4 bytes @ 0xE0002000) -- CPU_ReadMem(4 bytes @ 0xE000EDFC) -- CPU_ReadMem(4 bytes @ 0xE0001000) (0028ms, 0680ms total)
T0290 001:100 JLINK_Halt()  returns 0x00 (0000ms, 0680ms total)
T0290 001:100 JLINK_IsHalted()  returns TRUE (0000ms, 0680ms total)
T0290 001:100 JLINK_ReadMemU32(0xE000EDF0, 0x0001 Items, ...) -- CPU_ReadMem(4 bytes @ 0xE000EDF0) - Data: 03 00 03 00  returns 0x01 (0001ms, 0681ms total)
T0290 001:101 JLINK_WriteU32(0xE000EDF0, 0xA05F0003) -- CPU_WriteMem(4 bytes @ 0xE000EDF0)  returns 0x00 (0000ms, 0681ms total)
T0290 001:101 JLINK_WriteU32(0xE000EDFC, 0x01000000) -- CPU_WriteMem(4 bytes @ 0xE000EDFC)  returns 0x00 (0001ms, 0682ms total)
T0290 001:111 JLINK_GetHWStatus(...)  returns 0x00 (0000ms, 0682ms total)
T0290 001:116 JLINK_GetNumBPUnits(Type = 0xFFFFFF00)  returns 0x06 (0000ms, 0682ms total)
T0290 001:116 JLINK_GetNumBPUnits(Type = 0xF0)  returns 0x2000 (0000ms, 0682ms total)
T0290 001:116 JLINK_GetNumWPUnits()  returns 0x04 (0000ms, 0682ms total)
T0290 001:122 JLINK_GetSpeed()  returns 0x12C0 (0000ms, 0682ms total)
T0290 001:127 JLINK_ReadMemU32(0xE000E004, 0x0001 Items, ...) -- CPU_ReadMem(4 bytes @ 0xE000E004) - Data: 01 00 00 00  returns 0x01 (0001ms, 0683ms total)
T0290 001:128 JLINK_ReadMemU32(0xE000E004, 0x0001 Items, ...) -- CPU_ReadMem(4 bytes @ 0xE000E004) - Data: 01 00 00 00  returns 0x01 (0000ms, 0683ms total)
T0290 001:128 JLINK_WriteMem(0xE0001000, 0x001C Bytes, ...) - Data: 01 00 00 00 00 00 00 00 00 00 00 00 00 00 00 00 ... -- CPU_WriteMem(28 bytes @ 0xE0001000)  returns 0x1C (0001ms, 0684ms total)
T0290 001:129 JLINK_ReadMem (0xE0001000, 0x001C Bytes, ...) -- CPU_ReadMem(28 bytes @ 0xE0001000) - Data: 01 00 00 40 00 00 00 00 00 00 00 00 00 00 00 00 ...  returns 0x00 (0001ms, 0685ms total)
T0290 001:130 JLINK_Halt()  returns 0x00 (0000ms, 0685ms total)
T0290 001:130 JLINK_IsHalted()  returns TRUE (0000ms, 0685ms total)
T0290 001:133 JLINK_WriteMem(0x20000000, 0x0164 Bytes, ...) - Data: 00 BE 0A E0 0D 78 2D 06 68 40 08 24 40 00 00 D3 ... -- CPU_WriteMem(356 bytes @ 0x20000000)  returns 0x164 (0004ms, 0689ms total)
T0290 001:137 JLINK_WriteReg(R0, 0x08000000)  returns 0x00 (0000ms, 0689ms total)
T0290 001:137 JLINK_WriteReg(R1, 0x00B71B00)  returns 0x00 (0000ms, 0689ms total)
T0290 001:137 JLINK_WriteReg(R2, 0x00000001)  returns 0x00 (0000ms, 0689ms total)
T0290 001:137 JLINK_WriteReg(R3, 0x00000000)  returns 0x00 (0000ms, 0689ms total)
T0290 001:137 JLINK_WriteReg(R4, 0x00000000)  returns 0x00 (0000ms, 0689ms total)
T0290 001:137 JLINK_WriteReg(R5, 0x00000000)  returns 0x00 (0000ms, 0689ms total)
T0290 001:137 JLINK_WriteReg(R6, 0x00000000)  returns 0x00 (0000ms, 0689ms total)
T0290 001:137 JLINK_WriteReg(R7, 0x00000000)  returns 0x00 (0000ms, 0689ms total)
T0290 001:137 JLINK_WriteReg(R8, 0x00000000)  returns 0x00 (0000ms, 0689ms total)
T0290 001:137 JLINK_WriteReg(R9, 0x20000160)  returns 0x00 (0000ms, 0689ms total)
T0290 001:137 JLINK_WriteReg(R10, 0x00000000)  returns 0x00 (0000ms, 0689ms total)
T0290 001:137 JLINK_WriteReg(R11, 0x00000000)  returns 0x00 (0000ms, 0689ms total)
T0290 001:137 JLINK_WriteReg(R12, 0x00000000)  returns 0x00 (0000ms, 0689ms total)
T0290 001:137 JLINK_WriteReg(R13 (SP), 0x20001000)  returns 0x00 (0000ms, 0689ms total)
T0290 001:137 JLINK_WriteReg(R14, 0x20000001)  returns 0x00 (0000ms, 0689ms total)
T0290 001:137 JLINK_WriteReg(R15 (PC), 0x20000038)  returns 0x00 (0000ms, 0689ms total)
T0290 001:137 JLINK_WriteReg(XPSR, 0x01000000)  returns 0x00 (0000ms, 0689ms total)
T0290 001:137 JLINK_WriteReg(MSP, 0x20001000)  returns 0x00 (0000ms, 0689ms total)
T0290 001:137 JLINK_WriteReg(PSP, 0x20001000)  returns 0x00 (0000ms, 0689ms total)
T0290 001:137 JLINK_WriteReg(CFBP, 0x00000000)  returns 0x00 (0000ms, 0689ms total)
T0290 001:137 JLINK_SetBPEx(Addr = 0x20000000, Type = 0xFFFFFFF2) -- CPU_ReadMem(2 bytes @ 0x20000000)  returns 0x00000001 (0001ms, 0690ms total)
T0290 001:138 JLINK_Go() -- CPU_WriteMem(2 bytes @ 0x20000000) -- CPU_ReadMem(4 bytes @ 0xE0001000) -- CPU_WriteMem(4 bytes @ 0xE0002008) -- CPU_WriteMem(4 bytes @ 0xE000200C) -- CPU_WriteMem(4 bytes @ 0xE0002010) -- CPU_WriteMem(4 bytes @ 0xE0002014) -- CPU_WriteMem(4 bytes @ 0xE0002018) -- CPU_WriteMem(4 bytes @ 0xE000201C) -- CPU_WriteMem(4 bytes @ 0xE0001004) (0005ms, 0695ms total)
T0290 001:143 JLINK_IsHalted() -- CPU_ReadMem(2 bytes @ 0x20000000)  returns TRUE (0004ms, 0699ms total)
T0290 001:147 JLINK_ReadReg(R15 (PC))  returns 0x20000000 (0000ms, 0695ms total)
T0290 001:147 JLINK_ClrBPEx(BPHandle = 0x00000001)  returns 0x00 (0000ms, 0695ms total)
T0290 001:147 JLINK_ReadReg(R0)  returns 0x00000000 (0000ms, 0695ms total)
T0290 001:147 JLINK_WriteReg(R0, 0x08000000)  returns 0x00 (0000ms, 0695ms total)
T0290 001:147 JLINK_WriteReg(R1, 0x00B71B00)  returns 0x00 (0000ms, 0695ms total)
T0290 001:147 JLINK_WriteReg(R2, 0x00000001)  returns 0x00 (0000ms, 0695ms total)
T0290 001:147 JLINK_WriteReg(R3, 0x00000000)  returns 0x00 (0000ms, 0695ms total)
T0290 001:147 JLINK_WriteReg(R4, 0x00000000)  returns 0x00 (0000ms, 0695ms total)
T0290 001:147 JLINK_WriteReg(R5, 0x00000000)  returns 0x00 (0000ms, 0695ms total)
T0290 001:147 JLINK_WriteReg(R6, 0x00000000)  returns 0x00 (0000ms, 0695ms total)
T0290 001:147 JLINK_WriteReg(R7, 0x00000000)  returns 0x00 (0000ms, 0695ms total)
T0290 001:147 JLINK_WriteReg(R8, 0x00000000)  returns 0x00 (0000ms, 0695ms total)
T0290 001:147 JLINK_WriteReg(R9, 0x20000160)  returns 0x00 (0000ms, 0695ms total)
T0290 001:147 JLINK_WriteReg(R10, 0x00000000)  returns 0x00 (0000ms, 0695ms total)
T0290 001:147 JLINK_WriteReg(R11, 0x00000000)  returns 0x00 (0001ms, 0696ms total)
T0290 001:148 JLINK_WriteReg(R12, 0x00000000)  returns 0x00 (0000ms, 0696ms total)
T0290 001:148 JLINK_WriteReg(R13 (SP), 0x20001000)  returns 0x00 (0000ms, 0696ms total)
T0290 001:148 JLINK_WriteReg(R14, 0x20000001)  returns 0x00 (0000ms, 0696ms total)
T0290 001:148 JLINK_WriteReg(R15 (PC), 0x2000007C)  returns 0x00 (0000ms, 0696ms total)
T0290 001:148 JLINK_WriteReg(XPSR, 0x01000000)  returns 0x00 (0000ms, 0696ms total)
T0290 001:148 JLINK_WriteReg(MSP, 0x20001000)  returns 0x00 (0000ms, 0696ms total)
T0290 001:148 JLINK_WriteReg(PSP, 0x20001000)  returns 0x00 (0000ms, 0696ms total)
T0290 001:148 JLINK_WriteReg(CFBP, 0x00000000)  returns 0x00 (0000ms, 0696ms total)
T0290 001:148 JLINK_SetBPEx(Addr = 0x20000000, Type = 0xFFFFFFF2)  returns 0x00000002 (0000ms, 0696ms total)
T0290 001:148 JLINK_Go() -- CPU_ReadMem(4 bytes @ 0xE0001000) (0001ms, 0697ms total)
T0290 001:149 JLINK_IsHalted()  returns FALSE (0000ms, 0697ms total)
T0290 001:369 JLINK_IsHalted() -- CPU_ReadMem(2 bytes @ 0x20000000)  returns TRUE (0003ms, 0700ms total)
T0290 001:372 JLINK_ReadReg(R15 (PC))  returns 0x20000000 (0000ms, 0697ms total)
T0290 001:372 JLINK_ClrBPEx(BPHandle = 0x00000002)  returns 0x00 (0000ms, 0697ms total)
T0290 001:372 JLINK_ReadReg(R0)  returns 0x00000000 (0000ms, 0697ms total)
T0290 001:425 JLINK_WriteReg(R0, 0x00000001)  returns 0x00 (0000ms, 0697ms total)
T0290 001:425 JLINK_WriteReg(R1, 0x00B71B00)  returns 0x00 (0000ms, 0697ms total)
T0290 001:425 JLINK_WriteReg(R2, 0x00000001)  returns 0x00 (0000ms, 0697ms total)
T0290 001:425 JLINK_WriteReg(R3, 0x00000000)  returns 0x00 (0000ms, 0697ms total)
T0290 001:425 JLINK_WriteReg(R4, 0x00000000)  returns 0x00 (0000ms, 0697ms total)
T0290 001:425 JLINK_WriteReg(R5, 0x00000000)  returns 0x00 (0000ms, 0697ms total)
T0290 001:425 JLINK_WriteReg(R6, 0x00000000)  returns 0x00 (0000ms, 0697ms total)
T0290 001:425 JLINK_WriteReg(R7, 0x00000000)  returns 0x00 (0000ms, 0697ms total)
T0290 001:425 JLINK_WriteReg(R8, 0x00000000)  returns 0x00 (0000ms, 0697ms total)
T0290 001:425 JLINK_WriteReg(R9, 0x20000160)  returns 0x00 (0000ms, 0697ms total)
T0290 001:425 JLINK_WriteReg(R10, 0x00000000)  returns 0x00 (0000ms, 0697ms total)
T0290 001:425 JLINK_WriteReg(R11, 0x00000000)  returns 0x00 (0000ms, 0697ms total)
T0290 001:425 JLINK_WriteReg(R12, 0x00000000)  returns 0x00 (0000ms, 0697ms total)
T0290 001:425 JLINK_WriteReg(R13 (SP), 0x20001000)  returns 0x00 (0000ms, 0697ms total)
T0290 001:425 JLINK_WriteReg(R14, 0x20000001)  returns 0x00 (0000ms, 0697ms total)
T0290 001:425 JLINK_WriteReg(R15 (PC), 0x2000006A)  returns 0x00 (0000ms, 0697ms total)
T0290 001:425 JLINK_WriteReg(XPSR, 0x01000000)  returns 0x00 (0000ms, 0697ms total)
T0290 001:425 JLINK_WriteReg(MSP, 0x20001000)  returns 0x00 (0000ms, 0697ms total)
T0290 001:425 JLINK_WriteReg(PSP, 0x20001000)  returns 0x00 (0000ms, 0697ms total)
T0290 001:425 JLINK_WriteReg(CFBP, 0x00000000)  returns 0x00 (0000ms, 0697ms total)
T0290 001:425 JLINK_SetBPEx(Addr = 0x20000000, Type = 0xFFFFFFF2)  returns 0x00000003 (0000ms, 0697ms total)
T0290 001:425 JLINK_Go() -- CPU_ReadMem(4 bytes @ 0xE0001000) (0002ms, 0699ms total)
T0290 001:427 JLINK_IsHalted() -- CPU_ReadMem(2 bytes @ 0x20000000)  returns TRUE (0004ms, 0703ms total)
T0290 001:431 JLINK_ReadReg(R15 (PC))  returns 0x20000000 (0000ms, 0699ms total)
T0290 001:431 JLINK_ClrBPEx(BPHandle = 0x00000003)  returns 0x00 (0000ms, 0699ms total)
T0290 001:431 JLINK_ReadReg(R0)  returns 0x00000000 (0000ms, 0699ms total)
T0290 001:445 JLINK_WriteMem(0x20000000, 0x0164 Bytes, ...) - Data: 00 BE 0A E0 0D 78 2D 06 68 40 08 24 40 00 00 D3 ... -- CPU_WriteMem(356 bytes @ 0x20000000)  returns 0x164 (0004ms, 0703ms total)
T0290 001:449 JLINK_WriteReg(R0, 0x08000000)  returns 0x00 (0000ms, 0703ms total)
T0290 001:449 JLINK_WriteReg(R1, 0x00B71B00)  returns 0x00 (0000ms, 0703ms total)
T0290 001:449 JLINK_WriteReg(R2, 0x00000002)  returns 0x00 (0000ms, 0703ms total)
T0290 001:449 JLINK_WriteReg(R3, 0x00000000)  returns 0x00 (0000ms, 0703ms total)
T0290 001:449 JLINK_WriteReg(R4, 0x00000000)  returns 0x00 (0000ms, 0703ms total)
T0290 001:449 JLINK_WriteReg(R5, 0x00000000)  returns 0x00 (0000ms, 0703ms total)
T0290 001:449 JLINK_WriteReg(R6, 0x00000000)  returns 0x00 (0000ms, 0703ms total)
T0290 001:449 JLINK_WriteReg(R7, 0x00000000)  returns 0x00 (0000ms, 0703ms total)
T0290 001:449 JLINK_WriteReg(R8, 0x00000000)  returns 0x00 (0000ms, 0703ms total)
T0290 001:449 JLINK_WriteReg(R9, 0x20000160)  returns 0x00 (0000ms, 0703ms total)
T0290 001:449 JLINK_WriteReg(R10, 0x00000000)  returns 0x00 (0000ms, 0703ms total)
T0290 001:449 JLINK_WriteReg(R11, 0x00000000)  returns 0x00 (0000ms, 0703ms total)
T0290 001:449 JLINK_WriteReg(R12, 0x00000000)  returns 0x00 (0000ms, 0703ms total)
T0290 001:449 JLINK_WriteReg(R13 (SP), 0x20001000)  returns 0x00 (0000ms, 0703ms total)
T0290 001:449 JLINK_WriteReg(R14, 0x20000001)  returns 0x00 (0000ms, 0703ms total)
T0290 001:449 JLINK_WriteReg(R15 (PC), 0x20000038)  returns 0x00 (0000ms, 0703ms total)
T0290 001:449 JLINK_WriteReg(XPSR, 0x01000000)  returns 0x00 (0000ms, 0703ms total)
T0290 001:449 JLINK_WriteReg(MSP, 0x20001000)  returns 0x00 (0000ms, 0703ms total)
T0290 001:449 JLINK_WriteReg(PSP, 0x20001000)  returns 0x00 (0000ms, 0703ms total)
T0290 001:449 JLINK_WriteReg(CFBP, 0x00000000)  returns 0x00 (0000ms, 0703ms total)
T0290 001:449 JLINK_SetBPEx(Addr = 0x20000000, Type = 0xFFFFFFF2) -- CPU_ReadMem(2 bytes @ 0x20000000)  returns 0x00000004 (0001ms, 0704ms total)
T0290 001:450 JLINK_Go() -- CPU_WriteMem(2 bytes @ 0x20000000) -- CPU_ReadMem(4 bytes @ 0xE0001000) (0002ms, 0706ms total)
T0290 001:452 JLINK_IsHalted() -- CPU_ReadMem(2 bytes @ 0x20000000)  returns TRUE (0004ms, 0710ms total)
T0290 001:456 JLINK_ReadReg(R15 (PC))  returns 0x20000000 (0000ms, 0706ms total)
T0290 001:456 JLINK_ClrBPEx(BPHandle = 0x00000004)  returns 0x00 (0000ms, 0706ms total)
T0290 001:456 JLINK_ReadReg(R0)  returns 0x00000000 (0000ms, 0706ms total)
T0290 001:456 JLINK_WriteMem(0x20000164, 0x0400 Bytes, ...) - Data: 38 04 00 20 45 01 00 08 15 0C 00 08 0D 0C 00 08 ... -- CPU_WriteMem(1024 bytes @ 0x20000164)  returns 0x400 (0009ms, 0715ms total)
T0290 001:465 JLINK_WriteReg(R0, 0x08000000)  returns 0x00 (0000ms, 0715ms total)
T0290 001:465 JLINK_WriteReg(R1, 0x00000400)  returns 0x00 (0000ms, 0715ms total)
T0290 001:465 JLINK_WriteReg(R2, 0x20000164)  returns 0x00 (0000ms, 0715ms total)
T0290 001:465 JLINK_WriteReg(R3, 0x00000000)  returns 0x00 (0000ms, 0715ms total)
T0290 001:465 JLINK_WriteReg(R4, 0x00000000)  returns 0x00 (0000ms, 0715ms total)
T0290 001:465 JLINK_WriteReg(R5, 0x00000000)  returns 0x00 (0000ms, 0715ms total)
T0290 001:465 JLINK_WriteReg(R6, 0x00000000)  returns 0x00 (0000ms, 0715ms total)
T0290 001:465 JLINK_WriteReg(R7, 0x00000000)  returns 0x00 (0000ms, 0715ms total)
T0290 001:465 JLINK_WriteReg(R8, 0x00000000)  returns 0x00 (0000ms, 0715ms total)
T0290 001:465 JLINK_WriteReg(R9, 0x20000160)  returns 0x00 (0000ms, 0715ms total)
T0290 001:465 JLINK_WriteReg(R10, 0x00000000)  returns 0x00 (0000ms, 0715ms total)
T0290 001:465 JLINK_WriteReg(R11, 0x00000000)  returns 0x00 (0000ms, 0715ms total)
T0290 001:465 JLINK_WriteReg(R12, 0x00000000)  returns 0x00 (0000ms, 0715ms total)
T0290 001:465 JLINK_WriteReg(R13 (SP), 0x20001000)  returns 0x00 (0000ms, 0715ms total)
T0290 001:465 JLINK_WriteReg(R14, 0x20000001)  returns 0x00 (0000ms, 0715ms total)
T0290 001:465 JLINK_WriteReg(R15 (PC), 0x200000F4)  returns 0x00 (0000ms, 0715ms total)
T0290 001:465 JLINK_WriteReg(XPSR, 0x01000000)  returns 0x00 (0000ms, 0715ms total)
T0290 001:465 JLINK_WriteReg(MSP, 0x20001000)  returns 0x00 (0000ms, 0715ms total)
T0290 001:465 JLINK_WriteReg(PSP, 0x20001000)  returns 0x00 (0000ms, 0715ms total)
T0290 001:465 JLINK_WriteReg(CFBP, 0x00000000)  returns 0x00 (0000ms, 0715ms total)
T0290 001:465 JLINK_SetBPEx(Addr = 0x20000000, Type = 0xFFFFFFF2)  returns 0x00000005 (0000ms, 0715ms total)
T0290 001:465 JLINK_Go() -- CPU_ReadMem(4 bytes @ 0xE0001000) (0002ms, 0717ms total)
T0290 001:467 JLINK_IsHalted()  returns FALSE (0001ms, 0718ms total)
T0290 001:496 JLINK_IsHalted()  returns FALSE (0000ms, 0717ms total)
T0290 001:498 JLINK_IsHalted() -- CPU_ReadMem(2 bytes @ 0x20000000)  returns TRUE (0004ms, 0721ms total)
T0290 001:502 JLINK_ReadReg(R15 (PC))  returns 0x20000000 (0000ms, 0717ms total)
T0290 001:502 JLINK_ClrBPEx(BPHandle = 0x00000005)  returns 0x00 (0000ms, 0717ms total)
T0290 001:502 JLINK_ReadReg(R0)  returns 0x00000000 (0000ms, 0717ms total)
T0290 001:503 JLINK_WriteMem(0x20000164, 0x0400 Bytes, ...) - Data: 49 00 08 BF 20 F0 01 00 10 BC 70 47 10 B5 14 1E ... -- CPU_WriteMem(1024 bytes @ 0x20000164)  returns 0x400 (0008ms, 0725ms total)
T0290 001:511 JLINK_WriteReg(R0, 0x08000400)  returns 0x00 (0000ms, 0725ms total)
T0290 001:511 JLINK_WriteReg(R1, 0x00000400)  returns 0x00 (0000ms, 0725ms total)
T0290 001:511 JLINK_WriteReg(R2, 0x20000164)  returns 0x00 (0000ms, 0725ms total)
T0290 001:511 JLINK_WriteReg(R3, 0x00000000)  returns 0x00 (0000ms, 0725ms total)
T0290 001:511 JLINK_WriteReg(R4, 0x00000000)  returns 0x00 (0000ms, 0725ms total)
T0290 001:511 JLINK_WriteReg(R5, 0x00000000)  returns 0x00 (0000ms, 0725ms total)
T0290 001:511 JLINK_WriteReg(R6, 0x00000000)  returns 0x00 (0000ms, 0725ms total)
T0290 001:511 JLINK_WriteReg(R7, 0x00000000)  returns 0x00 (0000ms, 0725ms total)
T0290 001:511 JLINK_WriteReg(R8, 0x00000000)  returns 0x00 (0000ms, 0725ms total)
T0290 001:511 JLINK_WriteReg(R9, 0x20000160)  returns 0x00 (0000ms, 0725ms total)
T0290 001:511 JLINK_WriteReg(R10, 0x00000000)  returns 0x00 (0000ms, 0725ms total)
T0290 001:511 JLINK_WriteReg(R11, 0x00000000)  returns 0x00 (0000ms, 0725ms total)
T0290 001:511 JLINK_WriteReg(R12, 0x00000000)  returns 0x00 (0000ms, 0725ms total)
T0290 001:511 JLINK_WriteReg(R13 (SP), 0x20001000)  returns 0x00 (0000ms, 0725ms total)
T0290 001:511 JLINK_WriteReg(R14, 0x20000001)  returns 0x00 (0000ms, 0725ms total)
T0290 001:511 JLINK_WriteReg(R15 (PC), 0x200000F4)  returns 0x00 (0000ms, 0725ms total)
T0290 001:511 JLINK_WriteReg(XPSR, 0x01000000)  returns 0x00 (0000ms, 0725ms total)
T0290 001:511 JLINK_WriteReg(MSP, 0x20001000)  returns 0x00 (0000ms, 0725ms total)
T0290 001:511 JLINK_WriteReg(PSP, 0x20001000)  returns 0x00 (0000ms, 0725ms total)
T0290 001:511 JLINK_WriteReg(CFBP, 0x00000000)  returns 0x00 (0000ms, 0725ms total)
T0290 001:511 JLINK_SetBPEx(Addr = 0x20000000, Type = 0xFFFFFFF2)  returns 0x00000006 (0000ms, 0725ms total)
T0290 001:511 JLINK_Go() -- CPU_ReadMem(4 bytes @ 0xE0001000) (0002ms, 0727ms total)
T0290 001:513 JLINK_IsHalted()  returns FALSE (0001ms, 0728ms total)
T0290 001:517 JLINK_IsHalted()  returns FALSE (0000ms, 0727ms total)
T0290 001:519 JLINK_IsHalted()  returns FALSE (0000ms, 0727ms total)
T0290 001:521 JLINK_IsHalted()  returns FALSE (0000ms, 0727ms total)
T0290 001:535 JLINK_IsHalted()  returns FALSE (0000ms, 0727ms total)
T0290 001:540 JLINK_IsHalted()  returns FALSE (0001ms, 0728ms total)
T0290 001:542 JLINK_IsHalted()  returns FALSE (0000ms, 0727ms total)
T0290 001:544 JLINK_IsHalted() -- CPU_ReadMem(2 bytes @ 0x20000000)  returns TRUE (0004ms, 0731ms total)
T0290 001:548 JLINK_ReadReg(R15 (PC))  returns 0x20000000 (0000ms, 0727ms total)
T0290 001:548 JLINK_ClrBPEx(BPHandle = 0x00000006)  returns 0x00 (0000ms, 0727ms total)
T0290 001:548 JLINK_ReadReg(R0)  returns 0x00000000 (0000ms, 0727ms total)
T0290 001:548 JLINK_WriteMem(0x20000164, 0x0400 Bytes, ...) - Data: 00 F0 02 FA 08 BD 00 00 00 0C 01 40 08 B5 4F F4 ... -- CPU_WriteMem(1024 bytes @ 0x20000164)  returns 0x400 (0008ms, 0735ms total)
T0290 001:556 JLINK_WriteReg(R0, 0x08000800)  returns 0x00 (0000ms, 0735ms total)
T0290 001:556 JLINK_WriteReg(R1, 0x00000400)  returns 0x00 (0000ms, 0735ms total)
T0290 001:556 JLINK_WriteReg(R2, 0x20000164)  returns 0x00 (0000ms, 0735ms total)
T0290 001:556 JLINK_WriteReg(R3, 0x00000000)  returns 0x00 (0000ms, 0735ms total)
T0290 001:556 JLINK_WriteReg(R4, 0x00000000)  returns 0x00 (0000ms, 0735ms total)
T0290 001:556 JLINK_WriteReg(R5, 0x00000000)  returns 0x00 (0000ms, 0735ms total)
T0290 001:556 JLINK_WriteReg(R6, 0x00000000)  returns 0x00 (0000ms, 0735ms total)
T0290 001:556 JLINK_WriteReg(R7, 0x00000000)  returns 0x00 (0000ms, 0735ms total)
T0290 001:556 JLINK_WriteReg(R8, 0x00000000)  returns 0x00 (0000ms, 0735ms total)
T0290 001:556 JLINK_WriteReg(R9, 0x20000160)  returns 0x00 (0000ms, 0735ms total)
T0290 001:556 JLINK_WriteReg(R10, 0x00000000)  returns 0x00 (0000ms, 0735ms total)
T0290 001:556 JLINK_WriteReg(R11, 0x00000000)  returns 0x00 (0000ms, 0735ms total)
T0290 001:556 JLINK_WriteReg(R12, 0x00000000)  returns 0x00 (0000ms, 0735ms total)
T0290 001:556 JLINK_WriteReg(R13 (SP), 0x20001000)  returns 0x00 (0000ms, 0735ms total)
T0290 001:556 JLINK_WriteReg(R14, 0x20000001)  returns 0x00 (0000ms, 0735ms total)
T0290 001:556 JLINK_WriteReg(R15 (PC), 0x200000F4)  returns 0x00 (0000ms, 0735ms total)
T0290 001:556 JLINK_WriteReg(XPSR, 0x01000000)  returns 0x00 (0000ms, 0735ms total)
T0290 001:556 JLINK_WriteReg(MSP, 0x20001000)  returns 0x00 (0000ms, 0735ms total)
T0290 001:556 JLINK_WriteReg(PSP, 0x20001000)  returns 0x00 (0000ms, 0735ms total)
T0290 001:556 JLINK_WriteReg(CFBP, 0x00000000)  returns 0x00 (0000ms, 0735ms total)
T0290 001:556 JLINK_SetBPEx(Addr = 0x20000000, Type = 0xFFFFFFF2)  returns 0x00000007 (0000ms, 0735ms total)
T0290 001:556 JLINK_Go() -- CPU_ReadMem(4 bytes @ 0xE0001000) (0003ms, 0738ms total)
T0290 001:559 JLINK_IsHalted()  returns FALSE (0000ms, 0738ms total)
T0290 001:561 JLINK_IsHalted()  returns FALSE (0000ms, 0738ms total)
T0290 001:563 JLINK_IsHalted()  returns FALSE (0000ms, 0738ms total)
T0290 001:565 JLINK_IsHalted()  returns FALSE (0000ms, 0738ms total)
T0290 001:597 JLINK_IsHalted() -- CPU_ReadMem(2 bytes @ 0x20000000)  returns TRUE (0003ms, 0741ms total)
T0290 001:600 JLINK_ReadReg(R15 (PC))  returns 0x20000000 (0000ms, 0738ms total)
T0290 001:600 JLINK_ClrBPEx(BPHandle = 0x00000007)  returns 0x00 (0000ms, 0738ms total)
T0290 001:600 JLINK_ReadReg(R0)  returns 0x00000000 (0000ms, 0738ms total)
T0290 001:601 JLINK_WriteMem(0x20000164, 0x0400 Bytes, ...) - Data: 00 20 70 47 41 61 70 47 01 61 70 47 00 BF FE E7 ... -- CPU_WriteMem(1024 bytes @ 0x20000164)  returns 0x400 (0008ms, 0746ms total)
T0290 001:609 JLINK_WriteReg(R0, 0x08000C00)  returns 0x00 (0000ms, 0746ms total)
T0290 001:609 JLINK_WriteReg(R1, 0x00000400)  returns 0x00 (0000ms, 0746ms total)
T0290 001:609 JLINK_WriteReg(R2, 0x20000164)  returns 0x00 (0000ms, 0746ms total)
T0290 001:609 JLINK_WriteReg(R3, 0x00000000)  returns 0x00 (0000ms, 0746ms total)
T0290 001:609 JLINK_WriteReg(R4, 0x00000000)  returns 0x00 (0000ms, 0746ms total)
T0290 001:609 JLINK_WriteReg(R5, 0x00000000)  returns 0x00 (0000ms, 0746ms total)
T0290 001:609 JLINK_WriteReg(R6, 0x00000000)  returns 0x00 (0000ms, 0746ms total)
T0290 001:609 JLINK_WriteReg(R7, 0x00000000)  returns 0x00 (0000ms, 0746ms total)
T0290 001:609 JLINK_WriteReg(R8, 0x00000000)  returns 0x00 (0000ms, 0746ms total)
T0290 001:609 JLINK_WriteReg(R9, 0x20000160)  returns 0x00 (0000ms, 0746ms total)
T0290 001:609 JLINK_WriteReg(R10, 0x00000000)  returns 0x00 (0000ms, 0746ms total)
T0290 001:609 JLINK_WriteReg(R11, 0x00000000)  returns 0x00 (0000ms, 0746ms total)
T0290 001:609 JLINK_WriteReg(R12, 0x00000000)  returns 0x00 (0000ms, 0746ms total)
T0290 001:609 JLINK_WriteReg(R13 (SP), 0x20001000)  returns 0x00 (0000ms, 0746ms total)
T0290 001:609 JLINK_WriteReg(R14, 0x20000001)  returns 0x00 (0000ms, 0746ms total)
T0290 001:609 JLINK_WriteReg(R15 (PC), 0x200000F4)  returns 0x00 (0000ms, 0746ms total)
T0290 001:609 JLINK_WriteReg(XPSR, 0x01000000)  returns 0x00 (0000ms, 0746ms total)
T0290 001:609 JLINK_WriteReg(MSP, 0x20001000)  returns 0x00 (0000ms, 0746ms total)
T0290 001:609 JLINK_WriteReg(PSP, 0x20001000)  returns 0x00 (0000ms, 0746ms total)
T0290 001:609 JLINK_WriteReg(CFBP, 0x00000000)  returns 0x00 (0000ms, 0746ms total)
T0290 001:609 JLINK_SetBPEx(Addr = 0x20000000, Type = 0xFFFFFFF2)  returns 0x00000008 (0000ms, 0746ms total)
T0290 001:609 JLINK_Go() -- CPU_ReadMem(4 bytes @ 0xE0001000) (0002ms, 0748ms total)
T0290 001:611 JLINK_IsHalted()  returns FALSE (0000ms, 0748ms total)
T0290 001:613 JLINK_IsHalted()  returns FALSE (0000ms, 0748ms total)
T0290 001:621 JLINK_IsHalted()  returns FALSE (0000ms, 0748ms total)
T0290 001:623 JLINK_IsHalted()  returns FALSE (0000ms, 0748ms total)
T0290 001:625 JLINK_IsHalted()  returns FALSE (0000ms, 0748ms total)
T0290 001:627 JLINK_IsHalted()  returns FALSE (0000ms, 0748ms total)
T0290 001:629 JLINK_IsHalted()  returns FALSE (0000ms, 0748ms total)
T0290 001:631 JLINK_IsHalted()  returns FALSE (0000ms, 0748ms total)
T0290 001:633 JLINK_IsHalted()  returns FALSE (0000ms, 0748ms total)
T0290 001:635 JLINK_IsHalted()  returns FALSE (0000ms, 0748ms total)
T0290 001:637 JLINK_IsHalted()  returns FALSE (0000ms, 0748ms total)
T0290 001:639 JLINK_IsHalted()  returns FALSE (0000ms, 0748ms total)
T0290 001:641 JLINK_IsHalted()  returns FALSE (0000ms, 0748ms total)
T0290 001:643 JLINK_IsHalted() -- CPU_ReadMem(2 bytes @ 0x20000000)  returns TRUE (0004ms, 0752ms total)
T0290 001:647 JLINK_ReadReg(R15 (PC))  returns 0x20000000 (0000ms, 0748ms total)
T0290 001:647 JLINK_ClrBPEx(BPHandle = 0x00000008)  returns 0x00 (0000ms, 0748ms total)
T0290 001:647 JLINK_ReadReg(R0)  returns 0x00000000 (0000ms, 0748ms total)
T0290 001:648 JLINK_WriteMem(0x20000164, 0x0400 Bytes, ...) - Data: 89 0B 07 4D 6B 5C C5 68 B5 FB F3 F5 05 61 30 BD ... -- CPU_WriteMem(1024 bytes @ 0x20000164)  returns 0x400 (0008ms, 0756ms total)
T0290 001:656 JLINK_WriteReg(R0, 0x08001000)  returns 0x00 (0000ms, 0756ms total)
T0290 001:656 JLINK_WriteReg(R1, 0x00000400)  returns 0x00 (0000ms, 0756ms total)
T0290 001:656 JLINK_WriteReg(R2, 0x20000164)  returns 0x00 (0000ms, 0756ms total)
T0290 001:656 JLINK_WriteReg(R3, 0x00000000)  returns 0x00 (0000ms, 0756ms total)
T0290 001:656 JLINK_WriteReg(R4, 0x00000000)  returns 0x00 (0000ms, 0756ms total)
T0290 001:656 JLINK_WriteReg(R5, 0x00000000)  returns 0x00 (0000ms, 0756ms total)
T0290 001:656 JLINK_WriteReg(R6, 0x00000000)  returns 0x00 (0000ms, 0756ms total)
T0290 001:656 JLINK_WriteReg(R7, 0x00000000)  returns 0x00 (0000ms, 0756ms total)
T0290 001:656 JLINK_WriteReg(R8, 0x00000000)  returns 0x00 (0000ms, 0756ms total)
T0290 001:656 JLINK_WriteReg(R9, 0x20000160)  returns 0x00 (0000ms, 0756ms total)
T0290 001:656 JLINK_WriteReg(R10, 0x00000000)  returns 0x00 (0000ms, 0756ms total)
T0290 001:656 JLINK_WriteReg(R11, 0x00000000)  returns 0x00 (0000ms, 0756ms total)
T0290 001:656 JLINK_WriteReg(R12, 0x00000000)  returns 0x00 (0000ms, 0756ms total)
T0290 001:656 JLINK_WriteReg(R13 (SP), 0x20001000)  returns 0x00 (0000ms, 0756ms total)
T0290 001:656 JLINK_WriteReg(R14, 0x20000001)  returns 0x00 (0000ms, 0756ms total)
T0290 001:656 JLINK_WriteReg(R15 (PC), 0x200000F4)  returns 0x00 (0000ms, 0756ms total)
T0290 001:656 JLINK_WriteReg(XPSR, 0x01000000)  returns 0x00 (0000ms, 0756ms total)
T0290 001:656 JLINK_WriteReg(MSP, 0x20001000)  returns 0x00 (0000ms, 0756ms total)
T0290 001:656 JLINK_WriteReg(PSP, 0x20001000)  returns 0x00 (0000ms, 0756ms total)
T0290 001:656 JLINK_WriteReg(CFBP, 0x00000000)  returns 0x00 (0000ms, 0756ms total)
T0290 001:656 JLINK_SetBPEx(Addr = 0x20000000, Type = 0xFFFFFFF2)  returns 0x00000009 (0000ms, 0756ms total)
T0290 001:656 JLINK_Go() -- CPU_ReadMem(4 bytes @ 0xE0001000) (0002ms, 0758ms total)
T0290 001:658 JLINK_IsHalted()  returns FALSE (0001ms, 0759ms total)
T0290 001:662 JLINK_IsHalted()  returns FALSE (0000ms, 0758ms total)
T0290 001:664 JLINK_IsHalted()  returns FALSE (0000ms, 0758ms total)
T0290 001:673 JLINK_IsHalted()  returns FALSE (0000ms, 0758ms total)
T0290 001:675 JLINK_IsHalted()  returns FALSE (0000ms, 0758ms total)
T0290 001:688 JLINK_IsHalted()  returns FALSE (0000ms, 0758ms total)
T0290 001:690 JLINK_IsHalted() -- CPU_ReadMem(2 bytes @ 0x20000000)  returns TRUE (0004ms, 0762ms total)
T0290 001:694 JLINK_ReadReg(R15 (PC))  returns 0x20000000 (0000ms, 0758ms total)
T0290 001:694 JLINK_ClrBPEx(BPHandle = 0x00000009)  returns 0x00 (0000ms, 0758ms total)
T0290 001:694 JLINK_ReadReg(R0)  returns 0x00000000 (0000ms, 0758ms total)
T0290 001:694 JLINK_WriteMem(0x20000164, 0x0400 Bytes, ...) - Data: A1 46 00 27 B0 89 00 B1 00 BF 2F 46 2C 8A 4C F6 ... -- CPU_WriteMem(1024 bytes @ 0x20000164)  returns 0x400 (0009ms, 0767ms total)
T0290 001:703 JLINK_WriteReg(R0, 0x08001400)  returns 0x00 (0000ms, 0767ms total)
T0290 001:703 JLINK_WriteReg(R1, 0x00000400)  returns 0x00 (0000ms, 0767ms total)
T0290 001:703 JLINK_WriteReg(R2, 0x20000164)  returns 0x00 (0000ms, 0767ms total)
T0290 001:703 JLINK_WriteReg(R3, 0x00000000)  returns 0x00 (0000ms, 0767ms total)
T0290 001:703 JLINK_WriteReg(R4, 0x00000000)  returns 0x00 (0000ms, 0767ms total)
T0290 001:703 JLINK_WriteReg(R5, 0x00000000)  returns 0x00 (0000ms, 0767ms total)
T0290 001:703 JLINK_WriteReg(R6, 0x00000000)  returns 0x00 (0000ms, 0767ms total)
T0290 001:703 JLINK_WriteReg(R7, 0x00000000)  returns 0x00 (0000ms, 0767ms total)
T0290 001:703 JLINK_WriteReg(R8, 0x00000000)  returns 0x00 (0000ms, 0767ms total)
T0290 001:703 JLINK_WriteReg(R9, 0x20000160)  returns 0x00 (0000ms, 0767ms total)
T0290 001:703 JLINK_WriteReg(R10, 0x00000000)  returns 0x00 (0000ms, 0767ms total)
T0290 001:703 JLINK_WriteReg(R11, 0x00000000)  returns 0x00 (0000ms, 0767ms total)
T0290 001:703 JLINK_WriteReg(R12, 0x00000000)  returns 0x00 (0000ms, 0767ms total)
T0290 001:703 JLINK_WriteReg(R13 (SP), 0x20001000)  returns 0x00 (0000ms, 0767ms total)
T0290 001:703 JLINK_WriteReg(R14, 0x20000001)  returns 0x00 (0000ms, 0767ms total)
T0290 001:703 JLINK_WriteReg(R15 (PC), 0x200000F4)  returns 0x00 (0000ms, 0767ms total)
T0290 001:703 JLINK_WriteReg(XPSR, 0x01000000)  returns 0x00 (0000ms, 0767ms total)
T0290 001:703 JLINK_WriteReg(MSP, 0x20001000)  returns 0x00 (0000ms, 0767ms total)
T0290 001:703 JLINK_WriteReg(PSP, 0x20001000)  returns 0x00 (0000ms, 0767ms total)
T0290 001:703 JLINK_WriteReg(CFBP, 0x00000000)  returns 0x00 (0000ms, 0767ms total)
T0290 001:703 JLINK_SetBPEx(Addr = 0x20000000, Type = 0xFFFFFFF2)  returns 0x0000000A (0000ms, 0767ms total)
T0290 001:703 JLINK_Go() -- CPU_ReadMem(4 bytes @ 0xE0001000) (0002ms, 0769ms total)
T0290 001:705 JLINK_IsHalted()  returns FALSE (0001ms, 0770ms total)
T0290 001:708 JLINK_IsHalted()  returns FALSE (0000ms, 0769ms total)
T0290 001:719 JLINK_IsHalted()  returns FALSE (0000ms, 0769ms total)
T0290 001:721 JLINK_IsHalted()  returns FALSE (0000ms, 0769ms total)
T0290 001:723 JLINK_IsHalted()  returns FALSE (0000ms, 0769ms total)
T0290 001:725 JLINK_IsHalted()  returns FALSE (0000ms, 0769ms total)
T0290 001:727 JLINK_IsHalted()  returns FALSE (0000ms, 0769ms total)
T0290 001:729 JLINK_IsHalted()  returns FALSE (0000ms, 0769ms total)
T0290 001:731 JLINK_IsHalted()  returns FALSE (0000ms, 0769ms total)
T0290 001:733 JLINK_IsHalted()  returns FALSE (0000ms, 0769ms total)
T0290 001:735 JLINK_IsHalted()  returns FALSE (0000ms, 0769ms total)
T0290 001:737 JLINK_IsHalted() -- CPU_ReadMem(2 bytes @ 0x20000000)  returns TRUE (0004ms, 0773ms total)
T0290 001:741 JLINK_ReadReg(R15 (PC))  returns 0x20000000 (0000ms, 0769ms total)
T0290 001:741 JLINK_ClrBPEx(BPHandle = 0x0000000A)  returns 0x00 (0000ms, 0769ms total)
T0290 001:741 JLINK_ReadReg(R0)  returns 0x00000000 (0000ms, 0769ms total)
T0290 001:741 JLINK_WriteMem(0x20000164, 0x0400 Bytes, ...) - Data: 00 10 EA 17 C1 E9 00 52 F6 E7 D9 F8 00 10 0D 80 ... -- CPU_WriteMem(1024 bytes @ 0x20000164)  returns 0x400 (0009ms, 0778ms total)
T0290 001:750 JLINK_WriteReg(R0, 0x08001800)  returns 0x00 (0000ms, 0778ms total)
T0290 001:750 JLINK_WriteReg(R1, 0x00000400)  returns 0x00 (0000ms, 0778ms total)
T0290 001:750 JLINK_WriteReg(R2, 0x20000164)  returns 0x00 (0000ms, 0778ms total)
T0290 001:750 JLINK_WriteReg(R3, 0x00000000)  returns 0x00 (0000ms, 0778ms total)
T0290 001:750 JLINK_WriteReg(R4, 0x00000000)  returns 0x00 (0000ms, 0778ms total)
T0290 001:750 JLINK_WriteReg(R5, 0x00000000)  returns 0x00 (0000ms, 0778ms total)
T0290 001:750 JLINK_WriteReg(R6, 0x00000000)  returns 0x00 (0000ms, 0778ms total)
T0290 001:750 JLINK_WriteReg(R7, 0x00000000)  returns 0x00 (0000ms, 0778ms total)
T0290 001:750 JLINK_WriteReg(R8, 0x00000000)  returns 0x00 (0000ms, 0778ms total)
T0290 001:750 JLINK_WriteReg(R9, 0x20000160)  returns 0x00 (0000ms, 0778ms total)
T0290 001:750 JLINK_WriteReg(R10, 0x00000000)  returns 0x00 (0000ms, 0778ms total)
T0290 001:750 JLINK_WriteReg(R11, 0x00000000)  returns 0x00 (0000ms, 0778ms total)
T0290 001:750 JLINK_WriteReg(R12, 0x00000000)  returns 0x00 (0000ms, 0778ms total)
T0290 001:750 JLINK_WriteReg(R13 (SP), 0x20001000)  returns 0x00 (0000ms, 0778ms total)
T0290 001:750 JLINK_WriteReg(R14, 0x20000001)  returns 0x00 (0000ms, 0778ms total)
T0290 001:750 JLINK_WriteReg(R15 (PC), 0x200000F4)  returns 0x00 (0000ms, 0778ms total)
T0290 001:750 JLINK_WriteReg(XPSR, 0x01000000)  returns 0x00 (0000ms, 0778ms total)
T0290 001:750 JLINK_WriteReg(MSP, 0x20001000)  returns 0x00 (0000ms, 0778ms total)
T0290 001:750 JLINK_WriteReg(PSP, 0x20001000)  returns 0x00 (0000ms, 0778ms total)
T0290 001:750 JLINK_WriteReg(CFBP, 0x00000000)  returns 0x00 (0000ms, 0778ms total)
T0290 001:750 JLINK_SetBPEx(Addr = 0x20000000, Type = 0xFFFFFFF2)  returns 0x0000000B (0000ms, 0778ms total)
T0290 001:750 JLINK_Go() -- CPU_ReadMem(4 bytes @ 0xE0001000) (0002ms, 0780ms total)
T0290 001:753 JLINK_IsHalted()  returns FALSE (0000ms, 0781ms total)
T0290 001:766 JLINK_IsHalted()  returns FALSE (0000ms, 0781ms total)
T0290 001:768 JLINK_IsHalted()  returns FALSE (0000ms, 0781ms total)
T0290 001:770 JLINK_IsHalted()  returns FALSE (0000ms, 0781ms total)
T0290 001:772 JLINK_IsHalted()  returns FALSE (0000ms, 0781ms total)
T0290 001:774 JLINK_IsHalted()  returns FALSE (0000ms, 0781ms total)
T0290 001:776 JLINK_IsHalted()  returns FALSE (0000ms, 0781ms total)
T0290 001:778 JLINK_IsHalted()  returns FALSE (0001ms, 0782ms total)
T0290 001:781 JLINK_IsHalted()  returns FALSE (0000ms, 0781ms total)
T0290 001:783 JLINK_IsHalted() -- CPU_ReadMem(2 bytes @ 0x20000000)  returns TRUE (0004ms, 0785ms total)
T0290 001:787 JLINK_ReadReg(R15 (PC))  returns 0x20000000 (0000ms, 0781ms total)
T0290 001:787 JLINK_ClrBPEx(BPHandle = 0x0000000B)  returns 0x00 (0000ms, 0781ms total)
T0290 001:787 JLINK_ReadReg(R0)  returns 0x00000000 (0000ms, 0781ms total)
T0290 001:787 JLINK_WriteMem(0x20000164, 0x0400 Bytes, ...) - Data: 01 01 51 5C 30 29 08 D0 B8 42 02 DA 10 F1 04 0F ... -- CPU_WriteMem(1024 bytes @ 0x20000164)  returns 0x400 (0008ms, 0789ms total)
T0290 001:795 JLINK_WriteReg(R0, 0x08001C00)  returns 0x00 (0000ms, 0789ms total)
T0290 001:795 JLINK_WriteReg(R1, 0x00000400)  returns 0x00 (0000ms, 0789ms total)
T0290 001:795 JLINK_WriteReg(R2, 0x20000164)  returns 0x00 (0000ms, 0789ms total)
T0290 001:795 JLINK_WriteReg(R3, 0x00000000)  returns 0x00 (0000ms, 0789ms total)
T0290 001:795 JLINK_WriteReg(R4, 0x00000000)  returns 0x00 (0000ms, 0789ms total)
T0290 001:795 JLINK_WriteReg(R5, 0x00000000)  returns 0x00 (0000ms, 0789ms total)
T0290 001:795 JLINK_WriteReg(R6, 0x00000000)  returns 0x00 (0000ms, 0789ms total)
T0290 001:795 JLINK_WriteReg(R7, 0x00000000)  returns 0x00 (0000ms, 0789ms total)
T0290 001:795 JLINK_WriteReg(R8, 0x00000000)  returns 0x00 (0000ms, 0789ms total)
T0290 001:795 JLINK_WriteReg(R9, 0x20000160)  returns 0x00 (0000ms, 0789ms total)
T0290 001:795 JLINK_WriteReg(R10, 0x00000000)  returns 0x00 (0000ms, 0789ms total)
T0290 001:795 JLINK_WriteReg(R11, 0x00000000)  returns 0x00 (0000ms, 0789ms total)
T0290 001:795 JLINK_WriteReg(R12, 0x00000000)  returns 0x00 (0000ms, 0789ms total)
T0290 001:795 JLINK_WriteReg(R13 (SP), 0x20001000)  returns 0x00 (0000ms, 0789ms total)
T0290 001:795 JLINK_WriteReg(R14, 0x20000001)  returns 0x00 (0000ms, 0789ms total)
T0290 001:795 JLINK_WriteReg(R15 (PC), 0x200000F4)  returns 0x00 (0000ms, 0789ms total)
T0290 001:795 JLINK_WriteReg(XPSR, 0x01000000)  returns 0x00 (0000ms, 0789ms total)
T0290 001:796 JLINK_WriteReg(MSP, 0x20001000)  returns 0x00 (0000ms, 0790ms total)
T0290 001:796 JLINK_WriteReg(PSP, 0x20001000)  returns 0x00 (0000ms, 0790ms total)
T0290 001:796 JLINK_WriteReg(CFBP, 0x00000000)  returns 0x00 (0000ms, 0790ms total)
T0290 001:796 JLINK_SetBPEx(Addr = 0x20000000, Type = 0xFFFFFFF2)  returns 0x0000000C (0000ms, 0790ms total)
T0290 001:796 JLINK_Go() -- CPU_ReadMem(4 bytes @ 0xE0001000) (0002ms, 0792ms total)
T0290 001:798 JLINK_IsHalted()  returns FALSE (0001ms, 0793ms total)
T0290 001:823 JLINK_IsHalted()  returns FALSE (0000ms, 0792ms total)
T0290 001:825 JLINK_IsHalted()  returns FALSE (0001ms, 0793ms total)
T0290 001:827 JLINK_IsHalted()  returns FALSE (0000ms, 0792ms total)
T0290 001:829 JLINK_IsHalted() -- CPU_ReadMem(2 bytes @ 0x20000000)  returns TRUE (0003ms, 0795ms total)
T0290 001:832 JLINK_ReadReg(R15 (PC))  returns 0x20000000 (0000ms, 0792ms total)
T0290 001:832 JLINK_ClrBPEx(BPHandle = 0x0000000C)  returns 0x00 (0000ms, 0792ms total)
T0290 001:832 JLINK_ReadReg(R0)  returns 0x00000000 (0000ms, 0792ms total)
T0290 001:834 JLINK_WriteMem(0x20000164, 0x0400 Bytes, ...) - Data: 07 00 00 14 7F 14 7F 14 00 24 2A 7F 2A 12 00 62 ... -- CPU_WriteMem(1024 bytes @ 0x20000164)  returns 0x400 (0008ms, 0800ms total)
T0290 001:842 JLINK_WriteReg(R0, 0x08002000)  returns 0x00 (0000ms, 0800ms total)
T0290 001:842 JLINK_WriteReg(R1, 0x00000400)  returns 0x00 (0000ms, 0800ms total)
T0290 001:842 JLINK_WriteReg(R2, 0x20000164)  returns 0x00 (0000ms, 0800ms total)
T0290 001:842 JLINK_WriteReg(R3, 0x00000000)  returns 0x00 (0000ms, 0800ms total)
T0290 001:842 JLINK_WriteReg(R4, 0x00000000)  returns 0x00 (0000ms, 0800ms total)
T0290 001:842 JLINK_WriteReg(R5, 0x00000000)  returns 0x00 (0000ms, 0800ms total)
T0290 001:842 JLINK_WriteReg(R6, 0x00000000)  returns 0x00 (0000ms, 0800ms total)
T0290 001:842 JLINK_WriteReg(R7, 0x00000000)  returns 0x00 (0000ms, 0800ms total)
T0290 001:842 JLINK_WriteReg(R8, 0x00000000)  returns 0x00 (0000ms, 0800ms total)
T0290 001:842 JLINK_WriteReg(R9, 0x20000160)  returns 0x00 (0000ms, 0800ms total)
T0290 001:842 JLINK_WriteReg(R10, 0x00000000)  returns 0x00 (0000ms, 0800ms total)
T0290 001:842 JLINK_WriteReg(R11, 0x00000000)  returns 0x00 (0000ms, 0800ms total)
T0290 001:842 JLINK_WriteReg(R12, 0x00000000)  returns 0x00 (0000ms, 0800ms total)
T0290 001:842 JLINK_WriteReg(R13 (SP), 0x20001000)  returns 0x00 (0000ms, 0800ms total)
T0290 001:842 JLINK_WriteReg(R14, 0x20000001)  returns 0x00 (0000ms, 0800ms total)
T0290 001:842 JLINK_WriteReg(R15 (PC), 0x200000F4)  returns 0x00 (0000ms, 0800ms total)
T0290 001:842 JLINK_WriteReg(XPSR, 0x01000000)  returns 0x00 (0000ms, 0800ms total)
T0290 001:842 JLINK_WriteReg(MSP, 0x20001000)  returns 0x00 (0000ms, 0800ms total)
T0290 001:842 JLINK_WriteReg(PSP, 0x20001000)  returns 0x00 (0000ms, 0800ms total)
T0290 001:842 JLINK_WriteReg(CFBP, 0x00000000)  returns 0x00 (0000ms, 0800ms total)
T0290 001:842 JLINK_SetBPEx(Addr = 0x20000000, Type = 0xFFFFFFF2)  returns 0x0000000D (0000ms, 0800ms total)
T0290 001:842 JLINK_Go() -- CPU_ReadMem(4 bytes @ 0xE0001000) (0004ms, 0804ms total)
T0290 001:846 JLINK_IsHalted()  returns FALSE (0000ms, 0804ms total)
T0290 001:858 JLINK_IsHalted()  returns FALSE (0000ms, 0804ms total)
T0290 001:861 JLINK_IsHalted()  returns FALSE (0000ms, 0804ms total)
T0290 001:863 JLINK_IsHalted()  returns FALSE (0000ms, 0804ms total)
T0290 001:865 JLINK_IsHalted()  returns FALSE (0000ms, 0804ms total)
T0290 001:870 JLINK_IsHalted()  returns FALSE (0000ms, 0804ms total)
T0290 001:872 JLINK_IsHalted()  returns FALSE (0000ms, 0804ms total)
T0290 001:874 JLINK_IsHalted()  returns FALSE (0000ms, 0804ms total)
T0290 001:876 JLINK_IsHalted() -- CPU_ReadMem(2 bytes @ 0x20000000)  returns TRUE (0003ms, 0807ms total)
T0290 001:879 JLINK_ReadReg(R15 (PC))  returns 0x20000000 (0000ms, 0804ms total)
T0290 001:879 JLINK_ClrBPEx(BPHandle = 0x0000000D)  returns 0x00 (0000ms, 0804ms total)
T0290 001:879 JLINK_ReadReg(R0)  returns 0x00000000 (0000ms, 0804ms total)
T0290 001:879 JLINK_WriteMem(0x20000164, 0x0400 Bytes, ...) - Data: 00 20 10 08 04 02 01 00 00 70 48 08 08 08 F0 00 ... -- CPU_WriteMem(1024 bytes @ 0x20000164)  returns 0x400 (0008ms, 0812ms total)
T0290 001:887 JLINK_WriteReg(R0, 0x08002400)  returns 0x00 (0000ms, 0812ms total)
T0290 001:887 JLINK_WriteReg(R1, 0x00000400)  returns 0x00 (0000ms, 0812ms total)
T0290 001:887 JLINK_WriteReg(R2, 0x20000164)  returns 0x00 (0001ms, 0813ms total)
T0290 001:888 JLINK_WriteReg(R3, 0x00000000)  returns 0x00 (0000ms, 0813ms total)
T0290 001:888 JLINK_WriteReg(R4, 0x00000000)  returns 0x00 (0000ms, 0813ms total)
T0290 001:888 JLINK_WriteReg(R5, 0x00000000)  returns 0x00 (0000ms, 0813ms total)
T0290 001:888 JLINK_WriteReg(R6, 0x00000000)  returns 0x00 (0000ms, 0813ms total)
T0290 001:888 JLINK_WriteReg(R7, 0x00000000)  returns 0x00 (0000ms, 0813ms total)
T0290 001:888 JLINK_WriteReg(R8, 0x00000000)  returns 0x00 (0000ms, 0813ms total)
T0290 001:888 JLINK_WriteReg(R9, 0x20000160)  returns 0x00 (0000ms, 0813ms total)
T0290 001:888 JLINK_WriteReg(R10, 0x00000000)  returns 0x00 (0000ms, 0813ms total)
T0290 001:888 JLINK_WriteReg(R11, 0x00000000)  returns 0x00 (0000ms, 0813ms total)
T0290 001:888 JLINK_WriteReg(R12, 0x00000000)  returns 0x00 (0000ms, 0813ms total)
T0290 001:888 JLINK_WriteReg(R13 (SP), 0x20001000)  returns 0x00 (0000ms, 0813ms total)
T0290 001:888 JLINK_WriteReg(R14, 0x20000001)  returns 0x00 (0000ms, 0813ms total)
T0290 001:888 JLINK_WriteReg(R15 (PC), 0x200000F4)  returns 0x00 (0000ms, 0813ms total)
T0290 001:888 JLINK_WriteReg(XPSR, 0x01000000)  returns 0x00 (0000ms, 0813ms total)
T0290 001:888 JLINK_WriteReg(MSP, 0x20001000)  returns 0x00 (0000ms, 0813ms total)
T0290 001:888 JLINK_WriteReg(PSP, 0x20001000)  returns 0x00 (0000ms, 0813ms total)
T0290 001:888 JLINK_WriteReg(CFBP, 0x00000000)  returns 0x00 (0000ms, 0813ms total)
T0290 001:888 JLINK_SetBPEx(Addr = 0x20000000, Type = 0xFFFFFFF2)  returns 0x0000000E (0000ms, 0813ms total)
T0290 001:888 JLINK_Go() -- CPU_ReadMem(4 bytes @ 0xE0001000) (0002ms, 0815ms total)
T0290 001:890 JLINK_IsHalted()  returns FALSE (0001ms, 0816ms total)
T0290 001:893 JLINK_IsHalted()  returns FALSE (0000ms, 0815ms total)
T0290 001:914 JLINK_IsHalted()  returns FALSE (0000ms, 0815ms total)
T0290 001:917 JLINK_IsHalted()  returns FALSE (0000ms, 0815ms total)
T0290 001:919 JLINK_IsHalted()  returns FALSE (0000ms, 0815ms total)
T0290 001:921 JLINK_IsHalted()  returns FALSE (0000ms, 0815ms total)
T0290 001:923 JLINK_IsHalted() -- CPU_ReadMem(2 bytes @ 0x20000000)  returns TRUE (0002ms, 0817ms total)
T0290 001:925 JLINK_ReadReg(R15 (PC))  returns 0x20000000 (0000ms, 0815ms total)
T0290 001:925 JLINK_ClrBPEx(BPHandle = 0x0000000E)  returns 0x00 (0000ms, 0815ms total)
T0290 001:925 JLINK_ReadReg(R0)  returns 0x00000000 (0000ms, 0815ms total)
T0290 001:926 JLINK_WriteMem(0x20000164, 0x0400 Bytes, ...) - Data: 00 00 00 00 00 00 00 00 28 28 00 08 00 00 00 20 ... -- CPU_WriteMem(1024 bytes @ 0x20000164)  returns 0x400 (0009ms, 0824ms total)
T0290 001:935 JLINK_WriteReg(R0, 0x08002800)  returns 0x00 (0000ms, 0824ms total)
T0290 001:935 JLINK_WriteReg(R1, 0x00000060)  returns 0x00 (0000ms, 0824ms total)
T0290 001:935 JLINK_WriteReg(R2, 0x20000164)  returns 0x00 (0000ms, 0824ms total)
T0290 001:935 JLINK_WriteReg(R3, 0x00000000)  returns 0x00 (0000ms, 0824ms total)
T0290 001:935 JLINK_WriteReg(R4, 0x00000000)  returns 0x00 (0000ms, 0824ms total)
T0290 001:935 JLINK_WriteReg(R5, 0x00000000)  returns 0x00 (0000ms, 0824ms total)
T0290 001:935 JLINK_WriteReg(R6, 0x00000000)  returns 0x00 (0000ms, 0824ms total)
T0290 001:935 JLINK_WriteReg(R7, 0x00000000)  returns 0x00 (0000ms, 0824ms total)
T0290 001:935 JLINK_WriteReg(R8, 0x00000000)  returns 0x00 (0000ms, 0824ms total)
T0290 001:935 JLINK_WriteReg(R9, 0x20000160)  returns 0x00 (0000ms, 0824ms total)
T0290 001:935 JLINK_WriteReg(R10, 0x00000000)  returns 0x00 (0000ms, 0824ms total)
T0290 001:935 JLINK_WriteReg(R11, 0x00000000)  returns 0x00 (0000ms, 0824ms total)
T0290 001:935 JLINK_WriteReg(R12, 0x00000000)  returns 0x00 (0000ms, 0824ms total)
T0290 001:935 JLINK_WriteReg(R13 (SP), 0x20001000)  returns 0x00 (0000ms, 0824ms total)
T0290 001:935 JLINK_WriteReg(R14, 0x20000001)  returns 0x00 (0000ms, 0824ms total)
T0290 001:935 JLINK_WriteReg(R15 (PC), 0x200000F4)  returns 0x00 (0000ms, 0824ms total)
